
Circuit: eece 311 laboratory project #1

Error on line 28 : .hardcopy lab1.eps dc v(1) v(3) v(4) v(5)
	 unimplemented control card - error 
Doing analysis at TEMP = 27.000000 and TNOM = 27.000000


No. of Data Rows : 21

                         eece 311 laboratory project #1
                         DC transfer characteristic  Sun Sep 11 12:03:00  2011
--------------------------------------------------------------------------------
Index   v-sweep         vs1#branch      vsens#branch    
--------------------------------------------------------------------------------
0	0.000000e+00	9.660220e-02	-6.97674e-01	
1	5.000000e+00	-5.12333e-01	-4.06977e-01	
2	1.000000e+01	-1.12127e+00	-1.16279e-01	
3	1.500000e+01	-1.73020e+00	1.744186e-01	
4	2.000000e+01	-2.33914e+00	4.651163e-01	
5	2.500000e+01	-2.94807e+00	7.558140e-01	
6	3.000000e+01	-3.55701e+00	1.046512e+00	
7	3.500000e+01	-4.16594e+00	1.337209e+00	
8	4.000000e+01	-4.77488e+00	1.627907e+00	
9	4.500000e+01	-5.38381e+00	1.918605e+00	
10	5.000000e+01	-5.99275e+00	2.209302e+00	
11	5.500000e+01	-6.60168e+00	2.500000e+00	
12	6.000000e+01	-7.21062e+00	2.790698e+00	
13	6.500000e+01	-7.81955e+00	3.081395e+00	
14	7.000000e+01	-8.42849e+00	3.372093e+00	
15	7.500000e+01	-9.03742e+00	3.662791e+00	
16	8.000000e+01	-9.64636e+00	3.953488e+00	
17	8.500000e+01	-1.02553e+01	4.244186e+00	
18	9.000000e+01	-1.08642e+01	4.534884e+00	
19	9.500000e+01	-1.14732e+01	4.825581e+00	
20	1.000000e+02	-1.20821e+01	5.116279e+00	

--------------------------------------------------------------------------
                      eece 311 laboratory project #1
           DC transfer characteristic Sun Sep 11 12:03:00  2011

Legend:  + = vs1#branch       
         * = vsens#branch     
--------------------------------------------------------------------------
 v-sweep    vs1#bran-2.00e+01        -1.00e+01         0.00e+00         1.00e+01
----------------------|----------------|----------------|----------------|
 0.000e+00  9.660e-02 .                .              * +                .
 5.000e+00 -5.123e-01 .                .               X.                .
 1.000e+01 -1.121e+00 .                .              +*.                .
 1.500e+01 -1.730e+00 .                .             +  *                .
 2.000e+01 -2.339e+00 .                .            +   *                .
 2.500e+01 -2.948e+00 .                .          +     .*               .
 3.000e+01 -3.557e+00 .                .         +      .*               .
 3.500e+01 -4.166e+00 .                .        +       . *              .
 4.000e+01 -4.775e+00 .                .       +        . *              .
 4.500e+01 -5.384e+00 .                .      +         .  *             .
 5.000e+01 -5.993e+00 .                .     +          .  *             .
 5.500e+01 -6.602e+00 .                .    +           .   *            .
 6.000e+01 -7.211e+00 .                .   +            .   *            .
 6.500e+01 -7.820e+00 .                .  +             .    *           .
 7.000e+01 -8.428e+00 .                . +              .    *           .
 7.500e+01 -9.037e+00 .                .+               .     *          .
 8.000e+01 -9.646e+00 .                +                .     *          .
 8.500e+01 -1.026e+01 .               +.                .      *         .
 9.000e+01 -1.086e+01 .              + .                .      *         .
 9.500e+01 -1.147e+01 .             +  .                .       *        .
 1.000e+02 -1.208e+01 .            +   .                .       *        .
----------------------|----------------|----------------|----------------|
 v-sweep    vs1#bran-2.00e+01        -1.00e+01         0.00e+00         1.00e+01

                         eece 311 laboratory project #1
                         DC transfer characteristic  Sun Sep 11 12:03:00  2011
--------------------------------------------------------------------------------
Index   v-sweep         v(3)            v(4)            v(5)            
--------------------------------------------------------------------------------
0	0.000000e+00	9.724494e+00	4.372093e+00	6.976744e+00	
1	5.000000e+00	1.249683e+01	5.883721e+00	9.069767e+00	
2	1.000000e+01	1.526917e+01	7.395349e+00	1.116279e+01	
3	1.500000e+01	1.804151e+01	8.906977e+00	1.325581e+01	
4	2.000000e+01	2.081385e+01	1.041860e+01	1.534884e+01	
5	2.500000e+01	2.358618e+01	1.193023e+01	1.744186e+01	
6	3.000000e+01	2.635852e+01	1.344186e+01	1.953488e+01	
7	3.500000e+01	2.913086e+01	1.495349e+01	2.162791e+01	
8	4.000000e+01	3.190320e+01	1.646512e+01	2.372093e+01	
9	4.500000e+01	3.467553e+01	1.797674e+01	2.581395e+01	
10	5.000000e+01	3.744787e+01	1.948837e+01	2.790698e+01	
11	5.500000e+01	4.022021e+01	2.100000e+01	3.000000e+01	
12	6.000000e+01	4.299255e+01	2.251163e+01	3.209302e+01	
13	6.500000e+01	4.576489e+01	2.402326e+01	3.418605e+01	
14	7.000000e+01	4.853722e+01	2.553488e+01	3.627907e+01	
15	7.500000e+01	5.130956e+01	2.704651e+01	3.837209e+01	
16	8.000000e+01	5.408190e+01	2.855814e+01	4.046512e+01	
17	8.500000e+01	5.685424e+01	3.006977e+01	4.255814e+01	
18	9.000000e+01	5.962658e+01	3.158140e+01	4.465116e+01	
19	9.500000e+01	6.239891e+01	3.309302e+01	4.674419e+01	
20	1.000000e+02	6.517125e+01	3.460465e+01	4.883721e+01	

--------------------------------------------------------------------------
                      eece 311 laboratory project #1
           DC transfer characteristic Sun Sep 11 12:03:00  2011

Legend:  + = v(1)             
         * = v(3)             
         = = v(4)             
         $ = v(5)             
--------------------------------------------------------------------------
 v-sweep    v(1)     0.00e+00  2.00e+03  4.00e+03  6.00e+03  8.00e+03  1.00e+04 
----------------------|---------|---------|---------|---------|---------|
 0.000e+00  0.000e+00 + =$*     .         .         .         .         . 
 5.000e+00  5.000e+00 . X $ *   .         .         .         .         . 
 1.000e+01  1.000e+01 .  = X *  .         .         .         .         . 
 1.500e+01  1.500e+01 .   = $+ *.         .         .         .         . 
 2.000e+01  2.000e+01 .    = $  X         .         .         .         . 
 2.500e+01  2.500e+01 .    =  $ .*+       .         .         .         . 
 3.000e+01  3.000e+01 .     =  $.  * +    .         .         .         . 
 3.500e+01  3.500e+01 .      =  $   *  +  .         .         .         . 
 4.000e+01  4.000e+01 .       = .$   *    +         .         .         . 
 4.500e+01  4.500e+01 .       = . $    *  . +       .         .         . 
 5.000e+01  5.000e+01 .        =.  $    * .    +    .         .         . 
 5.500e+01  5.500e+01 .         =   $     *      +  .         .         . 
 6.000e+01  6.000e+01 .         .=    $   .*        +         .         . 
 6.500e+01  6.500e+01 .         . =    $  . *       . +       .         . 
 7.000e+01  7.000e+01 .         . =     $ .   *     .    +    .         . 
 7.500e+01  7.500e+01 .         .  =     $.    *    .      +  .         . 
 8.000e+01  8.000e+01 .         .   =     $      *  .         +         . 
 8.500e+01  8.500e+01 .         .    =    .$      * .         . +       . 
 9.000e+01  9.000e+01 .         .    =    . $      *.         .    +    . 
 9.500e+01  9.500e+01 .         .     =   .  $      .*        .      +  . 
 1.000e+02  1.000e+02 .         .      =  .   $     . *       .         + 
----------------------|---------|---------|---------|---------|---------|
 v-sweep    v(1)     0.00e+00  2.00e+03  4.00e+03  6.00e+03  8.00e+03  1.00e+04 

CPU time since last call: 0.012 seconds.

Total CPU time: 0.012 seconds.

Total DRAM available = 992.695312 MB.
DRAM currently available = 106.453125 MB.
Total ngspice program size = 5.745117 MB.
Resident set size = 659.000 kB.
Shared ngspice pages = 521.000 kB.
Text (code) pages = 1.553711 MB.
Stack = 0 bytes.
Library pages = 3.041992 MB.

