
**** 09/06/11 08:48:36 *********** Evaluation PSpice (Nov 1999) **************

 EECE 311 Example 1


 ****     CIRCUIT DESCRIPTION


******************************************************************************




VS 0 1 DC 100V
IS 0 3 DC 5A
R1 1 2 10
R2 2 5 20
R3 3 0 50
R4 3 4 40
E1 4 0 1 0 0.5
F1 0 2 VS 0.5
G1 4 3 1 0 0.1
H1 1 3 VX 2
VX 5 3 DC 0V

.DC VS 0V 100V 5V
.PRINT DC I(R1) I(R2) I(R3) I(R4)
.PRINT DC V(1) V(2) V(3) V(4) V(5)
.PLOT DC V(0,4)
.PROBE
.END

**** 09/06/11 08:48:36 *********** Evaluation PSpice (Nov 1999) **************

 EECE 311 Example 1


 ****     DC TRANSFER CURVES               TEMPERATURE =   27.000 DEG C


******************************************************************************



  VS          I(R1)       I(R2)       I(R3)       I(R4)       

   0.000E+00   1.060E+00  -5.889E-01   2.356E-02   2.945E-02
   5.000E+00   9.885E-01  -5.492E-01  -7.803E-02  -3.504E-02
   1.000E+01   9.170E-01  -5.094E-01  -1.796E-01  -9.953E-02
   1.500E+01   8.454E-01  -4.697E-01  -2.812E-01  -1.640E-01
   2.000E+01   7.739E-01  -4.299E-01  -3.828E-01  -2.285E-01
   2.500E+01   7.023E-01  -3.902E-01  -4.844E-01  -2.930E-01
   3.000E+01   6.307E-01  -3.504E-01  -5.860E-01  -3.575E-01
   3.500E+01   5.592E-01  -3.107E-01  -6.876E-01  -4.220E-01
   4.000E+01   4.876E-01  -2.709E-01  -7.892E-01  -4.865E-01
   4.500E+01   4.161E-01  -2.312E-01  -8.908E-01  -5.509E-01
   5.000E+01   3.445E-01  -1.914E-01  -9.923E-01  -6.154E-01
   5.500E+01   2.730E-01  -1.516E-01  -1.094E+00  -6.799E-01
   6.000E+01   2.014E-01  -1.119E-01  -1.196E+00  -7.444E-01
   6.500E+01   1.299E-01  -7.214E-02  -1.297E+00  -8.089E-01
   7.000E+01   5.830E-02  -3.239E-02  -1.399E+00  -8.734E-01
   7.500E+01  -1.325E-02   7.362E-03  -1.500E+00  -9.379E-01
   8.000E+01  -8.481E-02   4.711E-02  -1.602E+00  -1.002E+00
   8.500E+01  -1.564E-01   8.687E-02  -1.703E+00  -1.067E+00
   9.000E+01  -2.279E-01   1.266E-01  -1.805E+00  -1.131E+00
   9.500E+01  -2.995E-01   1.664E-01  -1.907E+00  -1.196E+00
   1.000E+02  -3.710E-01   2.061E-01  -2.008E+00  -1.260E+00



**** 09/06/11 08:48:36 *********** Evaluation PSpice (Nov 1999) **************

 EECE 311 Example 1


 ****     DC TRANSFER CURVES               TEMPERATURE =   27.000 DEG C


******************************************************************************



  VS          V(1)        V(2)        V(3)        V(4)        V(5)        

   0.000E+00   0.000E+00  -1.060E+01   1.178E+00   0.000E+00   1.178E+00
   5.000E+00  -5.000E+00  -1.489E+01  -3.902E+00  -2.500E+00  -3.902E+00
   1.000E+01  -1.000E+01  -1.917E+01  -8.981E+00  -5.000E+00  -8.981E+00
   1.500E+01  -1.500E+01  -2.345E+01  -1.406E+01  -7.500E+00  -1.406E+01
   2.000E+01  -2.000E+01  -2.774E+01  -1.914E+01  -1.000E+01  -1.914E+01
   2.500E+01  -2.500E+01  -3.202E+01  -2.422E+01  -1.250E+01  -2.422E+01
   3.000E+01  -3.000E+01  -3.631E+01  -2.930E+01  -1.500E+01  -2.930E+01
   3.500E+01  -3.500E+01  -4.059E+01  -3.438E+01  -1.750E+01  -3.438E+01
   4.000E+01  -4.000E+01  -4.488E+01  -3.946E+01  -2.000E+01  -3.946E+01
   4.500E+01  -4.500E+01  -4.916E+01  -4.454E+01  -2.250E+01  -4.454E+01
   5.000E+01  -5.000E+01  -5.345E+01  -4.962E+01  -2.500E+01  -4.962E+01
   5.500E+01  -5.500E+01  -5.773E+01  -5.470E+01  -2.750E+01  -5.470E+01
   6.000E+01  -6.000E+01  -6.201E+01  -5.978E+01  -3.000E+01  -5.978E+01
   6.500E+01  -6.500E+01  -6.630E+01  -6.486E+01  -3.250E+01  -6.486E+01
   7.000E+01  -7.000E+01  -7.058E+01  -6.994E+01  -3.500E+01  -6.994E+01
   7.500E+01  -7.500E+01  -7.487E+01  -7.501E+01  -3.750E+01  -7.501E+01
   8.000E+01  -8.000E+01  -7.915E+01  -8.009E+01  -4.000E+01  -8.009E+01
   8.500E+01  -8.500E+01  -8.344E+01  -8.517E+01  -4.250E+01  -8.517E+01
   9.000E+01  -9.000E+01  -8.772E+01  -9.025E+01  -4.500E+01  -9.025E+01
   9.500E+01  -9.500E+01  -9.201E+01  -9.533E+01  -4.750E+01  -9.533E+01
   1.000E+02  -1.000E+02  -9.629E+01  -1.004E+02  -5.000E+01  -1.004E+02



**** 09/06/11 08:48:36 *********** Evaluation PSpice (Nov 1999) **************

 EECE 311 Example 1


 ****     DC TRANSFER CURVES               TEMPERATURE =   27.000 DEG C


******************************************************************************



  VS          V(0,4)      
(*)----------    0.0000E+00   2.0000E+01   4.0000E+01   6.0000E+01   8.0000E+01
                       _ _ _ _ _ _ _ _ _ _ _ _ _ _ _ _ _ _ _ _ _ _ _ _ _ _ _
  0.000E+00  0.000E+00 *            .            .            .            .
  5.000E+00  2.500E+00 . *          .            .            .            .
  1.000E+01  5.000E+00 .  *         .            .            .            .
  1.500E+01  7.500E+00 .    *       .            .            .            .
  2.000E+01  1.000E+01 .      *     .            .            .            .
  2.500E+01  1.250E+01 .       *    .            .            .            .
  3.000E+01  1.500E+01 .         *  .            .            .            .
  3.500E+01  1.750E+01 .          * .            .            .            .
  4.000E+01  2.000E+01 .            *            .            .            .
  4.500E+01  2.250E+01 .            . *          .            .            .
  5.000E+01  2.500E+01 .            .  *         .            .            .
  5.500E+01  2.750E+01 .            .    *       .            .            .
  6.000E+01  3.000E+01 .            .      *     .            .            .
  6.500E+01  3.250E+01 .            .       *    .            .            .
  7.000E+01  3.500E+01 .            .         *  .            .            .
  7.500E+01  3.750E+01 .            .          * .            .            .
  8.000E+01  4.000E+01 .            .            *            .            .
  8.500E+01  4.250E+01 .            .            . *          .            .
  9.000E+01  4.500E+01 .            .            .  *         .            .
  9.500E+01  4.750E+01 .            .            .    *       .            .
  1.000E+02  5.000E+01 .            .            .      *     .            .
                       - - - - - - - - - - - - - - - - - - - - - - - - - - - 




          JOB CONCLUDED

          TOTAL JOB TIME            0.00
